2022-08-26T11:47:23 DEBUG about to read param "Total input power"...
2022-08-26T11:47:23 DEBUG Current transaction state - IDLE
2022-08-26T11:47:23 DEBUG Running transaction 1
2022-08-26T11:47:23 DEBUG SEND: 0x0 0x1 0x0 0x0 0x0 0x6 0x64 0x3 0x92 0x7a 0x0 0x2
2022-08-26T11:47:23 DEBUG New Transaction state 'SENDING'
2022-08-26T11:47:23 DEBUG Changing transaction state from 'SENDING' to 'WAITING FOR REPLY'
2022-08-26T11:47:23 DEBUG Changing transaction state from 'WAITING FOR REPLY' to 'PROCESSING REPLY'
2022-08-26T11:47:23 DEBUG RECV: 0x0 0x1 0x0 0x0 0x0 0x7 0x64 0x3 0x4 0x0 0x0 0x1b 0x6e
2022-08-26T11:47:23 DEBUG Processing: 0x0 0x1 0x0 0x0 0x0 0x7 0x64 0x3 0x4 0x0 0x0 0x1b 0x6e
2022-08-26T11:47:23 DEBUG Factory Response[ReadHoldingRegistersResponse: 3]
2022-08-26T11:47:23 DEBUG Adding transaction 1
2022-08-26T11:47:23 DEBUG Getting transaction 1
2022-08-26T11:47:23 DEBUG Changing transaction state from 'PROCESSING REPLY' to 'TRANSACTION_COMPLETE'
2022-08-26T11:47:23 DEBUG "Total input power": 7.022kW
2022-08-26T11:47:23 DEBUG about to read param "Load power"...
2022-08-26T11:47:23 DEBUG Current transaction state - TRANSACTION_COMPLETE
2022-08-26T11:47:23 DEBUG Running transaction 2
2022-08-26T11:47:23 DEBUG SEND: 0x0 0x2 0x0 0x0 0x0 0x6 0x64 0x3 0x92 0x7c 0x0 0x2
2022-08-26T11:47:23 DEBUG New Transaction state 'SENDING'
2022-08-26T11:47:23 DEBUG Changing transaction state from 'SENDING' to 'WAITING FOR REPLY'
2022-08-26T11:47:23 DEBUG Changing transaction state from 'WAITING FOR REPLY' to 'PROCESSING REPLY'
2022-08-26T11:47:23 DEBUG RECV: 0x0 0x2 0x0 0x0 0x0 0x7 0x64 0x3 0x4 0x0 0x0 0x0 0xa3
2022-08-26T11:47:23 DEBUG Processing: 0x0 0x2 0x0 0x0 0x0 0x7 0x64 0x3 0x4 0x0 0x0 0x0 0xa3
2022-08-26T11:47:23 DEBUG Factory Response[ReadHoldingRegistersResponse: 3]
2022-08-26T11:47:23 DEBUG Adding transaction 2
2022-08-26T11:47:23 DEBUG Getting transaction 2
2022-08-26T11:47:23 DEBUG Changing transaction state from 'PROCESSING REPLY' to 'TRANSACTION_COMPLETE'
2022-08-26T11:47:23 DEBUG "Load power": 0.163kW
2022-08-26T11:47:23 DEBUG about to read param "Grid power"...
2022-08-26T11:47:23 DEBUG Current transaction state - TRANSACTION_COMPLETE
2022-08-26T11:47:23 DEBUG Running transaction 3
2022-08-26T11:47:23 DEBUG SEND: 0x0 0x3 0x0 0x0 0x0 0x6 0x64 0x3 0x92 0x7e 0x0 0x2
2022-08-26T11:47:23 DEBUG New Transaction state 'SENDING'
2022-08-26T11:47:23 DEBUG Changing transaction state from 'SENDING' to 'WAITING FOR REPLY'
2022-08-26T11:47:23 DEBUG Changing transaction state from 'WAITING FOR REPLY' to 'PROCESSING REPLY'
2022-08-26T11:47:23 DEBUG RECV: 0x0 0x3 0x0 0x0 0x0 0x7 0x64 0x3 0x4 0xff 0xff 0xe5 0x35
2022-08-26T11:47:23 DEBUG Processing: 0x0 0x3 0x0 0x0 0x0 0x7 0x64 0x3 0x4 0xff 0xff 0xe5 0x35
2022-08-26T11:47:23 DEBUG Factory Response[ReadHoldingRegistersResponse: 3]
2022-08-26T11:47:23 DEBUG Adding transaction 3
2022-08-26T11:47:23 DEBUG Getting transaction 3
2022-08-26T11:47:23 DEBUG Changing transaction state from 'PROCESSING REPLY' to 'TRANSACTION_COMPLETE'
2022-08-26T11:47:23 DEBUG "Grid power": -6.859kW
2022-08-26T11:47:23 DEBUG about to read param "Total battery power"...
2022-08-26T11:47:23 DEBUG Current transaction state - TRANSACTION_COMPLETE
2022-08-26T11:47:23 DEBUG Running transaction 4
2022-08-26T11:47:23 DEBUG SEND: 0x0 0x4 0x0 0x0 0x0 0x6 0x64 0x3 0x92 0x80 0x0 0x2
2022-08-26T11:47:23 DEBUG New Transaction state 'SENDING'
2022-08-26T11:47:23 DEBUG Changing transaction state from 'SENDING' to 'WAITING FOR REPLY'
2022-08-26T11:47:39 DEBUG about to read param "Total input power"...
2022-08-26T11:47:39 DEBUG Current transaction state - IDLE
2022-08-26T11:47:39 DEBUG Running transaction 1
2022-08-26T11:47:39 DEBUG SEND: 0x0 0x1 0x0 0x0 0x0 0x6 0x64 0x3 0x92 0x7a 0x0 0x2
2022-08-26T11:47:39 DEBUG New Transaction state 'SENDING'
2022-08-26T11:47:39 DEBUG Changing transaction state from 'SENDING' to 'WAITING FOR REPLY'
2022-08-26T11:47:39 DEBUG Changing transaction state from 'WAITING FOR REPLY' to 'PROCESSING REPLY'
2022-08-26T11:47:39 DEBUG RECV: 0x0 0x1 0x0 0x0 0x0 0x7 0x64 0x3 0x4 0x0 0x0 0x1b 0xb3
2022-08-26T11:47:39 DEBUG Processing: 0x0 0x1 0x0 0x0 0x0 0x7 0x64 0x3 0x4 0x0 0x0 0x1b 0xb3
2022-08-26T11:47:39 DEBUG Factory Response[ReadHoldingRegistersResponse: 3]
2022-08-26T11:47:39 DEBUG Adding transaction 1
2022-08-26T11:47:39 DEBUG Getting transaction 1
2022-08-26T11:47:39 DEBUG Changing transaction state from 'PROCESSING REPLY' to 'TRANSACTION_COMPLETE'
2022-08-26T11:47:39 DEBUG "Total input power": 7.091kW
2022-08-26T11:47:39 DEBUG about to read param "Load power"...
2022-08-26T11:47:39 DEBUG Current transaction state - TRANSACTION_COMPLETE
2022-08-26T11:47:39 DEBUG Running transaction 2
2022-08-26T11:47:39 DEBUG SEND: 0x0 0x2 0x0 0x0 0x0 0x6 0x64 0x3 0x92 0x7c 0x0 0x2
2022-08-26T11:47:39 DEBUG New Transaction state 'SENDING'
2022-08-26T11:47:39 DEBUG Changing transaction state from 'SENDING' to 'WAITING FOR REPLY'
2022-08-26T11:47:39 DEBUG Changing transaction state from 'WAITING FOR REPLY' to 'PROCESSING REPLY'
2022-08-26T11:47:39 DEBUG RECV: 0x0 0x2 0x0 0x0 0x0 0x7 0x64 0x3 0x4 0x0 0x0 0x0 0xbf
2022-08-26T11:47:39 DEBUG Processing: 0x0 0x2 0x0 0x0 0x0 0x7 0x64 0x3 0x4 0x0 0x0 0x0 0xbf
2022-08-26T11:47:39 DEBUG Factory Response[ReadHoldingRegistersResponse: 3]
2022-08-26T11:47:39 DEBUG Adding transaction 2
2022-08-26T11:47:39 DEBUG Getting transaction 2
2022-08-26T11:47:39 DEBUG Changing transaction state from 'PROCESSING REPLY' to 'TRANSACTION_COMPLETE'
2022-08-26T11:47:39 DEBUG "Load power": 0.191kW
2022-08-26T11:47:39 DEBUG about to read param "Grid power"...
2022-08-26T11:47:39 DEBUG Current transaction state - TRANSACTION_COMPLETE
2022-08-26T11:47:39 DEBUG Running transaction 3
2022-08-26T11:47:39 DEBUG SEND: 0x0 0x3 0x0 0x0 0x0 0x6 0x64 0x3 0x92 0x7e 0x0 0x2
2022-08-26T11:47:39 DEBUG New Transaction state 'SENDING'
2022-08-26T11:47:39 DEBUG Changing transaction state from 'SENDING' to 'WAITING FOR REPLY'
2022-08-26T11:47:40 DEBUG Changing transaction state from 'WAITING FOR REPLY' to 'PROCESSING REPLY'
2022-08-26T11:47:40 DEBUG RECV: 0x0 0x3 0x0 0x0 0x0 0x7 0x64 0x3 0x4 0xff 0xff 0xe5 0xc
2022-08-26T11:47:40 DEBUG Processing: 0x0 0x3 0x0 0x0 0x0 0x7 0x64 0x3 0x4 0xff 0xff 0xe5 0xc
2022-08-26T11:47:40 DEBUG Factory Response[ReadHoldingRegistersResponse: 3]
2022-08-26T11:47:40 DEBUG Adding transaction 3
2022-08-26T11:47:40 DEBUG Getting transaction 3
2022-08-26T11:47:40 DEBUG Changing transaction state from 'PROCESSING REPLY' to 'TRANSACTION_COMPLETE'
2022-08-26T11:47:40 DEBUG "Grid power": -6.9kW
2022-08-26T11:47:40 DEBUG about to read param "Total battery power"...
2022-08-26T11:47:40 DEBUG Current transaction state - TRANSACTION_COMPLETE
2022-08-26T11:47:40 DEBUG Running transaction 4
2022-08-26T11:47:40 DEBUG SEND: 0x0 0x4 0x0 0x0 0x0 0x6 0x64 0x3 0x92 0x80 0x0 0x2
2022-08-26T11:47:40 DEBUG New Transaction state 'SENDING'
2022-08-26T11:47:40 DEBUG Changing transaction state from 'SENDING' to 'WAITING FOR REPLY'
2022-08-26T11:47:40 DEBUG Changing transaction state from 'WAITING FOR REPLY' to 'PROCESSING REPLY'
2022-08-26T11:47:40 DEBUG RECV: 0x0 0x4 0x0 0x0 0x0 0x7 0x64 0x3 0x4 0x0 0x0 0x0 0x0
2022-08-26T11:47:40 DEBUG Processing: 0x0 0x4 0x0 0x0 0x0 0x7 0x64 0x3 0x4 0x0 0x0 0x0 0x0
2022-08-26T11:47:40 DEBUG Factory Response[ReadHoldingRegistersResponse: 3]
2022-08-26T11:47:40 DEBUG Adding transaction 4
2022-08-26T11:47:40 DEBUG Getting transaction 4
2022-08-26T11:47:40 DEBUG Changing transaction state from 'PROCESSING REPLY' to 'TRANSACTION_COMPLETE'
2022-08-26T11:47:40 DEBUG "Total battery power": 0.0kW
2022-08-26T11:47:40 DEBUG about to read param "Total active power"...
2022-08-26T11:47:40 DEBUG Current transaction state - TRANSACTION_COMPLETE
2022-08-26T11:47:40 DEBUG Running transaction 5
2022-08-26T11:47:40 DEBUG SEND: 0x0 0x5 0x0 0x0 0x0 0x6 0x64 0x3 0x92 0x80 0x0 0x2
2022-08-26T11:47:40 DEBUG New Transaction state 'SENDING'
2022-08-26T11:47:40 DEBUG Changing transaction state from 'SENDING' to 'WAITING FOR REPLY'
2022-08-26T11:47:40 DEBUG Changing transaction state from 'WAITING FOR REPLY' to 'PROCESSING REPLY'
2022-08-26T11:47:40 DEBUG RECV: 0x0 0x5 0x0 0x0 0x0 0x7 0x64 0x3 0x4 0x0 0x0 0x0 0x0
2022-08-26T11:47:40 DEBUG Processing: 0x0 0x5 0x0 0x0 0x0 0x7 0x64 0x3 0x4 0x0 0x0 0x0 0x0
2022-08-26T11:47:40 DEBUG Factory Response[ReadHoldingRegistersResponse: 3]
2022-08-26T11:47:40 DEBUG Adding transaction 5
2022-08-26T11:47:40 DEBUG Getting transaction 5
2022-08-26T11:47:40 DEBUG Changing transaction state from 'PROCESSING REPLY' to 'TRANSACTION_COMPLETE'
2022-08-26T11:47:40 DEBUG "Total active power": 0.0kW
2022-08-26T11:47:40 DEBUG about to read param "Input power"...
2022-08-26T11:47:40 DEBUG Current transaction state - TRANSACTION_COMPLETE
2022-08-26T11:47:40 DEBUG Running transaction 6
2022-08-26T11:47:40 DEBUG SEND: 0x0 0x6 0x0 0x0 0x0 0x6 0x1 0x3 0x7d 0x40 0x0 0x2
2022-08-26T11:47:40 DEBUG New Transaction state 'SENDING'
2022-08-26T11:47:40 DEBUG Changing transaction state from 'SENDING' to 'WAITING FOR REPLY'
2022-08-26T11:47:41 DEBUG Changing transaction state from 'WAITING FOR REPLY' to 'PROCESSING REPLY'
2022-08-26T11:47:41 DEBUG RECV: 0x0 0x6 0x0 0x0 0x0 0x7 0x1 0x3 0x4 0x0 0x0 0x14 0x92
2022-08-26T11:47:41 DEBUG Processing: 0x0 0x6 0x0 0x0 0x0 0x7 0x1 0x3 0x4 0x0 0x0 0x14 0x92
2022-08-26T11:47:41 DEBUG Factory Response[ReadHoldingRegistersResponse: 3]
2022-08-26T11:47:41 DEBUG Adding transaction 6
2022-08-26T11:47:41 DEBUG Getting transaction 6
2022-08-26T11:47:41 DEBUG Changing transaction state from 'PROCESSING REPLY' to 'TRANSACTION_COMPLETE'
2022-08-26T11:47:41 DEBUG "Input power": 5.266kW
2022-08-26T11:47:41 DEBUG about to read param "Peak active power of current day"...
2022-08-26T11:47:41 DEBUG Current transaction state - TRANSACTION_COMPLETE
2022-08-26T11:47:41 DEBUG Running transaction 7
2022-08-26T11:47:41 DEBUG SEND: 0x0 0x7 0x0 0x0 0x0 0x6 0x1 0x3 0x7d 0x4e 0x0 0x2
2022-08-26T11:47:41 DEBUG New Transaction state 'SENDING'
2022-08-26T11:47:41 DEBUG Changing transaction state from 'SENDING' to 'WAITING FOR REPLY'
2022-08-26T11:47:41 DEBUG Changing transaction state from 'WAITING FOR REPLY' to 'PROCESSING REPLY'
2022-08-26T11:47:41 DEBUG RECV: 0x0 0x7 0x0 0x0 0x0 0x7 0x1 0x3 0x4 0x0 0x0 0x15 0x65
2022-08-26T11:47:41 DEBUG Processing: 0x0 0x7 0x0 0x0 0x0 0x7 0x1 0x3 0x4 0x0 0x0 0x15 0x65
2022-08-26T11:47:41 DEBUG Factory Response[ReadHoldingRegistersResponse: 3]
2022-08-26T11:47:41 DEBUG Adding transaction 7
2022-08-26T11:47:41 DEBUG Getting transaction 7
2022-08-26T11:47:41 DEBUG Changing transaction state from 'PROCESSING REPLY' to 'TRANSACTION_COMPLETE'
2022-08-26T11:47:41 DEBUG "Peak active power of current day": 5.477kW
2022-08-26T11:47:41 DEBUG about to read param "Active power"...
2022-08-26T11:47:41 DEBUG Current transaction state - TRANSACTION_COMPLETE
2022-08-26T11:47:41 DEBUG Running transaction 8
2022-08-26T11:47:41 DEBUG SEND: 0x0 0x8 0x0 0x0 0x0 0x6 0x1 0x3 0x7d 0x50 0x0 0x2
2022-08-26T11:47:41 DEBUG New Transaction state 'SENDING'
2022-08-26T11:47:41 DEBUG Changing transaction state from 'SENDING' to 'WAITING FOR REPLY'
2022-08-26T11:47:42 DEBUG Changing transaction state from 'WAITING FOR REPLY' to 'PROCESSING REPLY'
2022-08-26T11:47:42 DEBUG RECV: 0x0 0x8 0x0 0x0 0x0 0x7 0x1 0x3 0x4 0x0 0x0 0x14 0x92
2022-08-26T11:47:42 DEBUG Processing: 0x0 0x8 0x0 0x0 0x0 0x7 0x1 0x3 0x4 0x0 0x0 0x14 0x92
2022-08-26T11:47:42 DEBUG Factory Response[ReadHoldingRegistersResponse: 3]
2022-08-26T11:47:42 DEBUG Adding transaction 8
2022-08-26T11:47:42 DEBUG Getting transaction 8
2022-08-26T11:47:42 DEBUG Changing transaction state from 'PROCESSING REPLY' to 'TRANSACTION_COMPLETE'
2022-08-26T11:47:42 DEBUG "Active power": 5.266kW
2022-08-26T11:47:42 DEBUG about to read param "Accumulated energy yield"...
2022-08-26T11:47:42 DEBUG Current transaction state - TRANSACTION_COMPLETE
2022-08-26T11:47:42 DEBUG Running transaction 9
2022-08-26T11:47:42 DEBUG SEND: 0x0 0x9 0x0 0x0 0x0 0x6 0x1 0x3 0x7d 0x6a 0x0 0x2
2022-08-26T11:47:42 DEBUG New Transaction state 'SENDING'
2022-08-26T11:47:42 DEBUG Changing transaction state from 'SENDING' to 'WAITING FOR REPLY'
2022-08-26T11:47:42 DEBUG Changing transaction state from 'WAITING FOR REPLY' to 'PROCESSING REPLY'
2022-08-26T11:47:42 DEBUG RECV: 0x0 0x9 0x0 0x0 0x0 0x7 0x1 0x3 0x4 0x0 0xa 0x8f 0xbc
2022-08-26T11:47:42 DEBUG Processing: 0x0 0x9 0x0 0x0 0x0 0x7 0x1 0x3 0x4 0x0 0xa 0x8f 0xbc
2022-08-26T11:47:42 DEBUG Factory Response[ReadHoldingRegistersResponse: 3]
2022-08-26T11:47:42 DEBUG Adding transaction 9
2022-08-26T11:47:42 DEBUG Getting transaction 9
2022-08-26T11:47:42 DEBUG Changing transaction state from 'PROCESSING REPLY' to 'TRANSACTION_COMPLETE'
2022-08-26T11:47:42 DEBUG "Accumulated energy yield": 6921.56kW
2022-08-26T11:47:42 DEBUG about to read param "Daily energy yield"...
2022-08-26T11:47:42 DEBUG Current transaction state - TRANSACTION_COMPLETE
2022-08-26T11:47:42 DEBUG Running transaction 10
2022-08-26T11:47:42 DEBUG SEND: 0x0 0xa 0x0 0x0 0x0 0x6 0x1 0x3 0x7d 0x72 0x0 0x2
2022-08-26T11:47:42 DEBUG New Transaction state 'SENDING'
2022-08-26T11:47:42 DEBUG Changing transaction state from 'SENDING' to 'WAITING FOR REPLY'
2022-08-26T11:47:43 DEBUG Changing transaction state from 'WAITING FOR REPLY' to 'PROCESSING REPLY'
2022-08-26T11:47:43 DEBUG RECV: 0x0 0xa 0x0 0x0 0x0 0x7 0x1 0x3 0x4 0x0 0x0 0x1 0x26
2022-08-26T11:47:43 DEBUG Processing: 0x0 0xa 0x0 0x0 0x0 0x7 0x1 0x3 0x4 0x0 0x0 0x1 0x26
2022-08-26T11:47:43 DEBUG Factory Response[ReadHoldingRegistersResponse: 3]
2022-08-26T11:47:43 DEBUG Adding transaction 10
2022-08-26T11:47:43 DEBUG Getting transaction 10
2022-08-26T11:47:43 DEBUG Changing transaction state from 'PROCESSING REPLY' to 'TRANSACTION_COMPLETE'
2022-08-26T11:47:43 DEBUG "Daily energy yield": 2.94kW
2022-08-26T11:47:43 DEBUG about to read param "[Power meter collection] Active power"...
2022-08-26T11:47:43 DEBUG Current transaction state - TRANSACTION_COMPLETE
2022-08-26T11:47:43 DEBUG Running transaction 11
2022-08-26T11:47:43 DEBUG SEND: 0x0 0xb 0x0 0x0 0x0 0x6 0x1 0x3 0x90 0xf9 0x0 0x2
2022-08-26T11:47:43 DEBUG New Transaction state 'SENDING'
2022-08-26T11:47:43 DEBUG Changing transaction state from 'SENDING' to 'WAITING FOR REPLY'
2022-08-26T11:47:44 DEBUG Changing transaction state from 'WAITING FOR REPLY' to 'PROCESSING REPLY'
2022-08-26T11:47:44 DEBUG RECV: 0x0 0xb 0x0 0x0 0x0 0x7 0x1 0x3 0x4 0x0 0x0 0x1b 0x3
2022-08-26T11:47:44 DEBUG Processing: 0x0 0xb 0x0 0x0 0x0 0x7 0x1 0x3 0x4 0x0 0x0 0x1b 0x3
2022-08-26T11:47:44 DEBUG Factory Response[ReadHoldingRegistersResponse: 3]
2022-08-26T11:47:44 DEBUG Adding transaction 11
2022-08-26T11:47:44 DEBUG Getting transaction 11
2022-08-26T11:47:44 DEBUG Changing transaction state from 'PROCESSING REPLY' to 'TRANSACTION_COMPLETE'
2022-08-26T11:47:44 DEBUG "[Power meter collection] Active power": 6915.0W
2022-08-26T11:47:44 DEBUG about to read param "Positive active electricity"...
2022-08-26T11:47:44 DEBUG Current transaction state - TRANSACTION_COMPLETE
2022-08-26T11:47:44 DEBUG Running transaction 12
2022-08-26T11:47:44 DEBUG SEND: 0x0 0xc 0x0 0x0 0x0 0x6 0x1 0x3 0x90 0xff 0x0 0x2
2022-08-26T11:47:44 DEBUG New Transaction state 'SENDING'
2022-08-26T11:47:44 DEBUG Changing transaction state from 'SENDING' to 'WAITING FOR REPLY'
2022-08-26T11:47:44 DEBUG Changing transaction state from 'WAITING FOR REPLY' to 'PROCESSING REPLY'
2022-08-26T11:47:44 DEBUG RECV: 0x0 0xc 0x0 0x0 0x0 0x7 0x1 0x3 0x4 0x0 0x9 0x10 0x3f
2022-08-26T11:47:44 DEBUG Processing: 0x0 0xc 0x0 0x0 0x0 0x7 0x1 0x3 0x4 0x0 0x9 0x10 0x3f
2022-08-26T11:47:44 DEBUG Factory Response[ReadHoldingRegistersResponse: 3]
2022-08-26T11:47:44 DEBUG Adding transaction 12
2022-08-26T11:47:44 DEBUG Getting transaction 12
2022-08-26T11:47:44 DEBUG Changing transaction state from 'PROCESSING REPLY' to 'TRANSACTION_COMPLETE'
2022-08-26T11:47:44 DEBUG "Positive active electricity": 5939.83kWh
2022-08-26T11:47:44 DEBUG about to read param "Reverse active power"...
2022-08-26T11:47:44 DEBUG Current transaction state - TRANSACTION_COMPLETE
2022-08-26T11:47:44 DEBUG Running transaction 13
2022-08-26T11:47:44 DEBUG SEND: 0x0 0xd 0x0 0x0 0x0 0x6 0x1 0x3 0x91 0x1 0x0 0x2
2022-08-26T11:47:44 DEBUG New Transaction state 'SENDING'
2022-08-26T11:47:44 DEBUG Changing transaction state from 'SENDING' to 'WAITING FOR REPLY'
2022-08-26T11:47:45 DEBUG Changing transaction state from 'WAITING FOR REPLY' to 'PROCESSING REPLY'
2022-08-26T11:47:45 DEBUG RECV: 0x0 0xd 0x0 0x0 0x0 0x7 0x1 0x3 0x4 0x0 0x1 0x4d 0xcd
2022-08-26T11:47:45 DEBUG Processing: 0x0 0xd 0x0 0x0 0x0 0x7 0x1 0x3 0x4 0x0 0x1 0x4d 0xcd
2022-08-26T11:47:45 DEBUG Factory Response[ReadHoldingRegistersResponse: 3]
2022-08-26T11:47:45 DEBUG Adding transaction 13
2022-08-26T11:47:45 DEBUG Getting transaction 13
2022-08-26T11:47:45 DEBUG Changing transaction state from 'PROCESSING REPLY' to 'TRANSACTION_COMPLETE'
2022-08-26T11:47:45 DEBUG "Reverse active power": 854.53kWh
2022-08-26T11:47:45 DEBUG about to read param "[Energy storage] SOC"...
2022-08-26T11:47:45 DEBUG Current transaction state - TRANSACTION_COMPLETE
2022-08-26T11:47:45 DEBUG Running transaction 14
2022-08-26T11:47:45 DEBUG SEND: 0x0 0xe 0x0 0x0 0x0 0x6 0x1 0x3 0x93 0x80 0x0 0x1
2022-08-26T11:47:45 DEBUG New Transaction state 'SENDING'
2022-08-26T11:47:45 DEBUG Changing transaction state from 'SENDING' to 'WAITING FOR REPLY'
2022-08-26T11:47:45 DEBUG Changing transaction state from 'WAITING FOR REPLY' to 'PROCESSING REPLY'
2022-08-26T11:47:45 DEBUG RECV: 0x0 0xe 0x0 0x0 0x0 0x5 0x1 0x3 0x2 0x3 0xb6
2022-08-26T11:47:45 DEBUG Processing: 0x0 0xe 0x0 0x0 0x0 0x5 0x1 0x3 0x2 0x3 0xb6
2022-08-26T11:47:45 DEBUG Factory Response[ReadHoldingRegistersResponse: 3]
2022-08-26T11:47:45 DEBUG Adding transaction 14
2022-08-26T11:47:45 DEBUG Getting transaction 14
2022-08-26T11:47:45 DEBUG Changing transaction state from 'PROCESSING REPLY' to 'TRANSACTION_COMPLETE'
2022-08-26T11:47:45 DEBUG "[Energy storage] SOC": 95.0%
2022-08-26T11:47:45 DEBUG about to read param "[Energy storage] Charge/Discharge power"...
2022-08-26T11:47:45 DEBUG Current transaction state - TRANSACTION_COMPLETE
2022-08-26T11:47:45 DEBUG Running transaction 15
2022-08-26T11:47:45 DEBUG SEND: 0x0 0xf 0x0 0x0 0x0 0x6 0x1 0x3 0x93 0x85 0x0 0x2
2022-08-26T11:47:45 DEBUG New Transaction state 'SENDING'
2022-08-26T11:47:45 DEBUG Changing transaction state from 'SENDING' to 'WAITING FOR REPLY'
2022-08-26T11:47:46 DEBUG Changing transaction state from 'WAITING FOR REPLY' to 'PROCESSING REPLY'
2022-08-26T11:47:46 DEBUG RECV: 0x0 0xf 0x0 0x0 0x0 0x7 0x1 0x3 0x4 0x0 0x0 0x0 0x0
2022-08-26T11:47:46 DEBUG Processing: 0x0 0xf 0x0 0x0 0x0 0x7 0x1 0x3 0x4 0x0 0x0 0x0 0x0
2022-08-26T11:47:46 DEBUG Factory Response[ReadHoldingRegistersResponse: 3]
2022-08-26T11:47:46 DEBUG Adding transaction 15
2022-08-26T11:47:46 DEBUG Getting transaction 15
2022-08-26T11:47:46 DEBUG Changing transaction state from 'PROCESSING REPLY' to 'TRANSACTION_COMPLETE'
2022-08-26T11:47:46 DEBUG "[Energy storage] Charge/Discharge power": 0.0W
2022-08-26T11:47:46 DEBUG about to read param "[Energy storage] Current-day charge capacity"...
2022-08-26T11:47:46 DEBUG Current transaction state - TRANSACTION_COMPLETE
2022-08-26T11:47:46 DEBUG Running transaction 16
2022-08-26T11:47:46 DEBUG SEND: 0x0 0x10 0x0 0x0 0x0 0x6 0x1 0x3 0x93 0x98 0x0 0x2
2022-08-26T11:47:46 DEBUG New Transaction state 'SENDING'
2022-08-26T11:47:46 DEBUG Changing transaction state from 'SENDING' to 'WAITING FOR REPLY'
2022-08-26T11:47:46 DEBUG Changing transaction state from 'WAITING FOR REPLY' to 'PROCESSING REPLY'
2022-08-26T11:47:46 DEBUG RECV: 0x0 0x10 0x0 0x0 0x0 0x7 0x1 0x3 0x4 0x0 0x0 0x4 0xd9
2022-08-26T11:47:46 DEBUG Processing: 0x0 0x10 0x0 0x0 0x0 0x7 0x1 0x3 0x4 0x0 0x0 0x4 0xd9
2022-08-26T11:47:46 DEBUG Factory Response[ReadHoldingRegistersResponse: 3]
2022-08-26T11:47:46 DEBUG Adding transaction 16
2022-08-26T11:47:46 DEBUG Getting transaction 16
2022-08-26T11:47:46 DEBUG Changing transaction state from 'PROCESSING REPLY' to 'TRANSACTION_COMPLETE'
2022-08-26T11:47:46 DEBUG "[Energy storage] Current-day charge capacity": 12.41kWh
2022-08-26T11:47:46 DEBUG about to read param "[Energy storage] Current-day discharge capacity"...
2022-08-26T11:47:46 DEBUG Current transaction state - TRANSACTION_COMPLETE
2022-08-26T11:47:46 DEBUG Running transaction 17
2022-08-26T11:47:46 DEBUG SEND: 0x0 0x11 0x0 0x0 0x0 0x6 0x1 0x3 0x93 0x9a 0x0 0x2
2022-08-26T11:47:46 DEBUG New Transaction state 'SENDING'
2022-08-26T11:47:46 DEBUG Changing transaction state from 'SENDING' to 'WAITING FOR REPLY'
2022-08-26T11:47:47 DEBUG Changing transaction state from 'WAITING FOR REPLY' to 'PROCESSING REPLY'
2022-08-26T11:47:47 DEBUG RECV: 0x0 0x11 0x0 0x0 0x0 0x7 0x1 0x3 0x4 0x0 0x0 0x1 0x18
2022-08-26T11:47:47 DEBUG Processing: 0x0 0x11 0x0 0x0 0x0 0x7 0x1 0x3 0x4 0x0 0x0 0x1 0x18
2022-08-26T11:47:47 DEBUG Factory Response[ReadHoldingRegistersResponse: 3]
2022-08-26T11:47:47 DEBUG Adding transaction 17
2022-08-26T11:47:47 DEBUG Getting transaction 17
2022-08-26T11:47:47 DEBUG Changing transaction state from 'PROCESSING REPLY' to 'TRANSACTION_COMPLETE'
2022-08-26T11:47:47 DEBUG "[Energy storage] Current-day discharge capacity": 2.8kWh
2022-08-26T11:47:47 DEBUG about to read param "System time"...
2022-08-26T11:47:47 DEBUG Current transaction state - TRANSACTION_COMPLETE
2022-08-26T11:47:47 DEBUG Running transaction 18
2022-08-26T11:47:47 DEBUG SEND: 0x0 0x12 0x0 0x0 0x0 0x6 0x1 0x3 0x9c 0x40 0x0 0x2
2022-08-26T11:47:47 DEBUG New Transaction state 'SENDING'
2022-08-26T11:47:47 DEBUG Changing transaction state from 'SENDING' to 'WAITING FOR REPLY'
2022-08-26T11:47:47 DEBUG Changing transaction state from 'WAITING FOR REPLY' to 'PROCESSING REPLY'
2022-08-26T11:47:47 DEBUG RECV: 0x0 0x12 0x0 0x0 0x0 0x7 0x1 0x3 0x4 0x63 0x8 0xb2 0xdf
2022-08-26T11:47:47 DEBUG Processing: 0x0 0x12 0x0 0x0 0x0 0x7 0x1 0x3 0x4 0x63 0x8 0xb2 0xdf
2022-08-26T11:47:47 DEBUG Factory Response[ReadHoldingRegistersResponse: 3]
2022-08-26T11:47:47 DEBUG Adding transaction 18
2022-08-26T11:47:47 DEBUG Getting transaction 18
2022-08-26T11:47:47 DEBUG Changing transaction state from 'PROCESSING REPLY' to 'TRANSACTION_COMPLETE'
2022-08-26T11:47:47 DEBUG "System time": 1661514463.0
2022-08-26T11:47:47 DEBUG about to read param "[Backup] Switch to off-grid"...
2022-08-26T11:47:47 DEBUG Current transaction state - TRANSACTION_COMPLETE
2022-08-26T11:47:47 DEBUG Running transaction 19
2022-08-26T11:47:47 DEBUG SEND: 0x0 0x13 0x0 0x0 0x0 0x6 0x1 0x3 0xb9 0xf4 0x0 0x1
2022-08-26T11:47:47 DEBUG New Transaction state 'SENDING'
2022-08-26T11:47:47 DEBUG Changing transaction state from 'SENDING' to 'WAITING FOR REPLY'
2022-08-26T11:47:48 DEBUG Changing transaction state from 'WAITING FOR REPLY' to 'PROCESSING REPLY'
2022-08-26T11:47:48 DEBUG RECV: 0x0 0x13 0x0 0x0 0x0 0x5 0x1 0x3 0x2 0x0 0x0
2022-08-26T11:47:48 DEBUG Processing: 0x0 0x13 0x0 0x0 0x0 0x5 0x1 0x3 0x2 0x0 0x0
2022-08-26T11:47:48 DEBUG Factory Response[ReadHoldingRegistersResponse: 3]
2022-08-26T11:47:48 DEBUG Adding transaction 19
2022-08-26T11:47:48 DEBUG Getting transaction 19
2022-08-26T11:47:48 DEBUG Changing transaction state from 'PROCESSING REPLY' to 'TRANSACTION_COMPLETE'
2022-08-26T11:47:48 DEBUG "[Backup] Switch to off-grid": 0.0
2022-08-26T11:48:48 DEBUG about to read param "Total input power"...
2022-08-26T11:48:48 DEBUG Current transaction state - TRANSACTION_COMPLETE
2022-08-26T11:48:48 DEBUG Running transaction 20
2022-08-26T11:48:48 DEBUG SEND: 0x0 0x14 0x0 0x0 0x0 0x6 0x64 0x3 0x92 0x7a 0x0 0x2
2022-08-26T11:48:48 DEBUG New Transaction state 'SENDING'
2022-08-26T11:48:48 DEBUG Changing transaction state from 'SENDING' to 'WAITING FOR REPLY'
2022-08-26T11:48:48 DEBUG Changing transaction state from 'WAITING FOR REPLY' to 'PROCESSING REPLY'
2022-08-26T11:48:48 DEBUG RECV: 0x0 0x14 0x0 0x0 0x0 0x7 0x64 0x3 0x4 0x0 0x0 0x1b 0xcb
2022-08-26T11:48:48 DEBUG Processing: 0x0 0x14 0x0 0x0 0x0 0x7 0x64 0x3 0x4 0x0 0x0 0x1b 0xcb
2022-08-26T11:48:48 DEBUG Factory Response[ReadHoldingRegistersResponse: 3]
2022-08-26T11:48:48 DEBUG Adding transaction 20
2022-08-26T11:48:48 DEBUG Getting transaction 20
2022-08-26T11:48:48 DEBUG Changing transaction state from 'PROCESSING REPLY' to 'TRANSACTION_COMPLETE'
2022-08-26T11:48:48 DEBUG "Total input power": 7.115kW
2022-08-26T11:48:48 DEBUG about to read param "Load power"...
2022-08-26T11:48:48 DEBUG Current transaction state - TRANSACTION_COMPLETE
2022-08-26T11:48:48 DEBUG Running transaction 21
2022-08-26T11:48:48 DEBUG SEND: 0x0 0x15 0x0 0x0 0x0 0x6 0x64 0x3 0x92 0x7c 0x0 0x2
2022-08-26T11:48:48 DEBUG New Transaction state 'SENDING'
2022-08-26T11:48:48 DEBUG Changing transaction state from 'SENDING' to 'WAITING FOR REPLY'
2022-08-26T11:48:48 DEBUG Changing transaction state from 'WAITING FOR REPLY' to 'PROCESSING REPLY'
2022-08-26T11:48:48 DEBUG RECV: 0x0 0x15 0x0 0x0 0x0 0x7 0x64 0x3 0x4 0x0 0x0 0x0 0xa5
2022-08-26T11:48:48 DEBUG Processing: 0x0 0x15 0x0 0x0 0x0 0x7 0x64 0x3 0x4 0x0 0x0 0x0 0xa5
2022-08-26T11:48:48 DEBUG Factory Response[ReadHoldingRegistersResponse: 3]
2022-08-26T11:48:48 DEBUG Adding transaction 21
2022-08-26T11:48:48 DEBUG Getting transaction 21
2022-08-26T11:48:48 DEBUG Changing transaction state from 'PROCESSING REPLY' to 'TRANSACTION_COMPLETE'
2022-08-26T11:48:48 DEBUG "Load power": 0.165kW
2022-08-26T11:48:48 DEBUG about to read param "Grid power"...
2022-08-26T11:48:48 DEBUG Current transaction state - TRANSACTION_COMPLETE
2022-08-26T11:48:48 DEBUG Running transaction 22
2022-08-26T11:48:48 DEBUG SEND: 0x0 0x16 0x0 0x0 0x0 0x6 0x64 0x3 0x92 0x7e 0x0 0x2
2022-08-26T11:48:48 DEBUG New Transaction state 'SENDING'
2022-08-26T11:48:48 DEBUG Changing transaction state from 'SENDING' to 'WAITING FOR REPLY'
2022-08-26T11:48:48 DEBUG Changing transaction state from 'WAITING FOR REPLY' to 'PROCESSING REPLY'
2022-08-26T11:48:48 DEBUG RECV: 0x0 0x16 0x0 0x0 0x0 0x7 0x64 0x3 0x4 0xff 0xff 0xe4 0xda
2022-08-26T11:48:48 DEBUG Processing: 0x0 0x16 0x0 0x0 0x0 0x7 0x64 0x3 0x4 0xff 0xff 0xe4 0xda
2022-08-26T11:48:48 DEBUG Factory Response[ReadHoldingRegistersResponse: 3]
2022-08-26T11:48:48 DEBUG Adding transaction 22
2022-08-26T11:48:48 DEBUG Getting transaction 22
2022-08-26T11:48:48 DEBUG Changing transaction state from 'PROCESSING REPLY' to 'TRANSACTION_COMPLETE'
2022-08-26T11:48:48 DEBUG "Grid power": -6.95kW
2022-08-26T11:48:48 DEBUG about to read param "Total battery power"...
2022-08-26T11:48:48 DEBUG Current transaction state - TRANSACTION_COMPLETE
2022-08-26T11:48:48 DEBUG Running transaction 23
2022-08-26T11:48:48 DEBUG SEND: 0x0 0x17 0x0 0x0 0x0 0x6 0x64 0x3 0x92 0x80 0x0 0x2
2022-08-26T11:48:48 DEBUG New Transaction state 'SENDING'
2022-08-26T11:48:48 DEBUG Changing transaction state from 'SENDING' to 'WAITING FOR REPLY'
2022-08-26T11:48:48 DEBUG Changing transaction state from 'WAITING FOR REPLY' to 'PROCESSING REPLY'
2022-08-26T11:48:48 DEBUG RECV: 0x0 0x17 0x0 0x0 0x0 0x7 0x64 0x3 0x4 0x0 0x0 0x0 0x0
2022-08-26T11:48:48 DEBUG Processing: 0x0 0x17 0x0 0x0 0x0 0x7 0x64 0x3 0x4 0x0 0x0 0x0 0x0
2022-08-26T11:48:48 DEBUG Factory Response[ReadHoldingRegistersResponse: 3]
2022-08-26T11:48:48 DEBUG Adding transaction 23
2022-08-26T11:48:48 DEBUG Getting transaction 23
2022-08-26T11:48:48 DEBUG Changing transaction state from 'PROCESSING REPLY' to 'TRANSACTION_COMPLETE'
2022-08-26T11:48:48 DEBUG "Total battery power": 0.0kW
2022-08-26T11:48:48 DEBUG about to read param "Total active power"...
2022-08-26T11:48:48 DEBUG Current transaction state - TRANSACTION_COMPLETE
2022-08-26T11:48:48 DEBUG Running transaction 24
2022-08-26T11:48:48 DEBUG SEND: 0x0 0x18 0x0 0x0 0x0 0x6 0x64 0x3 0x92 0x80 0x0 0x2
2022-08-26T11:48:48 DEBUG New Transaction state 'SENDING'
2022-08-26T11:48:48 DEBUG Changing transaction state from 'SENDING' to 'WAITING FOR REPLY'
2022-08-26T11:48:48 DEBUG Changing transaction state from 'WAITING FOR REPLY' to 'PROCESSING REPLY'
2022-08-26T11:48:48 DEBUG RECV: 0x0 0x18 0x0 0x0 0x0 0x7 0x64 0x3 0x4 0x0 0x0 0x0 0x0
2022-08-26T11:48:48 DEBUG Processing: 0x0 0x18 0x0 0x0 0x0 0x7 0x64 0x3 0x4 0x0 0x0 0x0 0x0
2022-08-26T11:48:48 DEBUG Factory Response[ReadHoldingRegistersResponse: 3]
2022-08-26T11:48:48 DEBUG Adding transaction 24
2022-08-26T11:48:48 DEBUG Getting transaction 24
2022-08-26T11:48:48 DEBUG Changing transaction state from 'PROCESSING REPLY' to 'TRANSACTION_COMPLETE'
2022-08-26T11:48:48 DEBUG "Total active power": 0.0kW
2022-08-26T11:48:48 DEBUG about to read param "Input power"...
2022-08-26T11:48:48 DEBUG Current transaction state - TRANSACTION_COMPLETE
2022-08-26T11:48:48 DEBUG Running transaction 25
2022-08-26T11:48:48 DEBUG SEND: 0x0 0x19 0x0 0x0 0x0 0x6 0x1 0x3 0x7d 0x40 0x0 0x2
2022-08-26T11:48:48 DEBUG New Transaction state 'SENDING'
2022-08-26T11:48:48 DEBUG Changing transaction state from 'SENDING' to 'WAITING FOR REPLY'
2022-08-26T11:48:49 DEBUG Changing transaction state from 'WAITING FOR REPLY' to 'PROCESSING REPLY'
2022-08-26T11:48:49 DEBUG RECV: 0x0 0x19 0x0 0x0 0x0 0x7 0x1 0x3 0x4 0x0 0x0 0x3 0xd0
2022-08-26T11:48:49 DEBUG Processing: 0x0 0x19 0x0 0x0 0x0 0x7 0x1 0x3 0x4 0x0 0x0 0x3 0xd0
2022-08-26T11:48:49 DEBUG Factory Response[ReadHoldingRegistersResponse: 3]
2022-08-26T11:48:49 DEBUG Adding transaction 25
2022-08-26T11:48:49 DEBUG Getting transaction 25
2022-08-26T11:48:49 DEBUG Changing transaction state from 'PROCESSING REPLY' to 'TRANSACTION_COMPLETE'
2022-08-26T11:48:49 DEBUG "Input power": 0.976kW
2022-08-26T11:48:49 DEBUG about to read param "Peak active power of current day"...
2022-08-26T11:48:49 DEBUG Current transaction state - TRANSACTION_COMPLETE
2022-08-26T11:48:49 DEBUG Running transaction 26
2022-08-26T11:48:49 DEBUG SEND: 0x0 0x1a 0x0 0x0 0x0 0x6 0x1 0x3 0x7d 0x4e 0x0 0x2
2022-08-26T11:48:49 DEBUG New Transaction state 'SENDING'
2022-08-26T11:48:49 DEBUG Changing transaction state from 'SENDING' to 'WAITING FOR REPLY'
2022-08-26T11:48:49 DEBUG Changing transaction state from 'WAITING FOR REPLY' to 'PROCESSING REPLY'
2022-08-26T11:48:49 DEBUG RECV: 0x0 0x1a 0x0 0x0 0x0 0x7 0x1 0x3 0x4 0x0 0x0 0x15 0x65
2022-08-26T11:48:49 DEBUG Processing: 0x0 0x1a 0x0 0x0 0x0 0x7 0x1 0x3 0x4 0x0 0x0 0x15 0x65
2022-08-26T11:48:49 DEBUG Factory Response[ReadHoldingRegistersResponse: 3]
2022-08-26T11:48:49 DEBUG Adding transaction 26
2022-08-26T11:48:49 DEBUG Getting transaction 26
2022-08-26T11:48:49 DEBUG Changing transaction state from 'PROCESSING REPLY' to 'TRANSACTION_COMPLETE'
2022-08-26T11:48:49 DEBUG "Peak active power of current day": 5.477kW
2022-08-26T11:48:49 DEBUG about to read param "Active power"...
2022-08-26T11:48:49 DEBUG Current transaction state - TRANSACTION_COMPLETE
2022-08-26T11:48:49 DEBUG Running transaction 27
2022-08-26T11:48:49 DEBUG SEND: 0x0 0x1b 0x0 0x0 0x0 0x6 0x1 0x3 0x7d 0x50 0x0 0x2
2022-08-26T11:48:49 DEBUG New Transaction state 'SENDING'
2022-08-26T11:48:49 DEBUG Changing transaction state from 'SENDING' to 'WAITING FOR REPLY'
2022-08-26T11:48:50 DEBUG Changing transaction state from 'WAITING FOR REPLY' to 'PROCESSING REPLY'
2022-08-26T11:48:50 DEBUG RECV: 0x0 0x1b 0x0 0x0 0x0 0x7 0x1 0x3 0x4 0x0 0x0 0x4 0x13
2022-08-26T11:48:50 DEBUG Processing: 0x0 0x1b 0x0 0x0 0x0 0x7 0x1 0x3 0x4 0x0 0x0 0x4 0x13
2022-08-26T11:48:50 DEBUG Factory Response[ReadHoldingRegistersResponse: 3]
2022-08-26T11:48:50 DEBUG Adding transaction 27
2022-08-26T11:48:50 DEBUG Getting transaction 27
2022-08-26T11:48:50 DEBUG Changing transaction state from 'PROCESSING REPLY' to 'TRANSACTION_COMPLETE'
2022-08-26T11:48:50 DEBUG "Active power": 1.043kW
2022-08-26T11:48:50 DEBUG about to read param "Accumulated energy yield"...
2022-08-26T11:48:50 DEBUG Current transaction state - TRANSACTION_COMPLETE
2022-08-26T11:48:50 DEBUG Running transaction 28
2022-08-26T11:48:50 DEBUG SEND: 0x0 0x1c 0x0 0x0 0x0 0x6 0x1 0x3 0x7d 0x6a 0x0 0x2
2022-08-26T11:48:50 DEBUG New Transaction state 'SENDING'
2022-08-26T11:48:50 DEBUG Changing transaction state from 'SENDING' to 'WAITING FOR REPLY'
2022-08-26T11:48:52 DEBUG Changing transaction state from 'WAITING FOR REPLY' to 'PROCESSING REPLY'
2022-08-26T11:48:52 DEBUG RECV: 0x0 0x1c 0x0 0x0 0x0 0x7 0x1 0x3 0x4 0x0 0xa 0x8f 0xc5
2022-08-26T11:48:52 DEBUG Processing: 0x0 0x1c 0x0 0x0 0x0 0x7 0x1 0x3 0x4 0x0 0xa 0x8f 0xc5
2022-08-26T11:48:52 DEBUG Factory Response[ReadHoldingRegistersResponse: 3]
2022-08-26T11:48:52 DEBUG Adding transaction 28
2022-08-26T11:48:52 DEBUG Getting transaction 28
2022-08-26T11:48:52 DEBUG Changing transaction state from 'PROCESSING REPLY' to 'TRANSACTION_COMPLETE'
2022-08-26T11:48:52 DEBUG "Accumulated energy yield": 6921.65kW
2022-08-26T11:48:52 DEBUG about to read param "Daily energy yield"...
2022-08-26T11:48:52 DEBUG Current transaction state - TRANSACTION_COMPLETE
2022-08-26T11:48:52 DEBUG Running transaction 29
2022-08-26T11:48:52 DEBUG SEND: 0x0 0x1d 0x0 0x0 0x0 0x6 0x1 0x3 0x7d 0x72 0x0 0x2
2022-08-26T11:48:52 DEBUG New Transaction state 'SENDING'
2022-08-26T11:48:52 DEBUG Changing transaction state from 'SENDING' to 'WAITING FOR REPLY'
2022-08-26T11:48:53 DEBUG Changing transaction state from 'WAITING FOR REPLY' to 'PROCESSING REPLY'
2022-08-26T11:48:53 DEBUG RECV: 0x0 0x1d 0x0 0x0 0x0 0x7 0x1 0x3 0x4 0x0 0x0 0x1 0x2e
2022-08-26T11:48:53 DEBUG Processing: 0x0 0x1d 0x0 0x0 0x0 0x7 0x1 0x3 0x4 0x0 0x0 0x1 0x2e
2022-08-26T11:48:53 DEBUG Factory Response[ReadHoldingRegistersResponse: 3]
2022-08-26T11:48:53 DEBUG Adding transaction 29
2022-08-26T11:48:53 DEBUG Getting transaction 29
2022-08-26T11:48:53 DEBUG Changing transaction state from 'PROCESSING REPLY' to 'TRANSACTION_COMPLETE'
2022-08-26T11:48:53 DEBUG "Daily energy yield": 3.02kW
2022-08-26T11:48:53 DEBUG about to read param "[Power meter collection] Active power"...
2022-08-26T11:48:53 DEBUG Current transaction state - TRANSACTION_COMPLETE
2022-08-26T11:48:53 DEBUG Running transaction 30
2022-08-26T11:48:53 DEBUG SEND: 0x0 0x1e 0x0 0x0 0x0 0x6 0x1 0x3 0x90 0xf9 0x0 0x2
2022-08-26T11:48:53 DEBUG New Transaction state 'SENDING'
2022-08-26T11:48:53 DEBUG Changing transaction state from 'SENDING' to 'WAITING FOR REPLY'
2022-08-26T11:48:54 DEBUG Changing transaction state from 'WAITING FOR REPLY' to 'PROCESSING REPLY'
2022-08-26T11:48:54 DEBUG RECV: 0x0 0x1e 0x0 0x0 0x0 0x7 0x1 0x3 0x4 0x0 0x0 0x6 0x2c
2022-08-26T11:48:54 DEBUG Processing: 0x0 0x1e 0x0 0x0 0x0 0x7 0x1 0x3 0x4 0x0 0x0 0x6 0x2c
2022-08-26T11:48:54 DEBUG Factory Response[ReadHoldingRegistersResponse: 3]
2022-08-26T11:48:54 DEBUG Adding transaction 30
2022-08-26T11:48:54 DEBUG Getting transaction 30
2022-08-26T11:48:54 DEBUG Changing transaction state from 'PROCESSING REPLY' to 'TRANSACTION_COMPLETE'
2022-08-26T11:48:54 DEBUG "[Power meter collection] Active power": 1580.0W
2022-08-26T11:48:54 DEBUG about to read param "Positive active electricity"...
2022-08-26T11:48:54 DEBUG Current transaction state - TRANSACTION_COMPLETE
2022-08-26T11:48:54 DEBUG Running transaction 31
2022-08-26T11:48:54 DEBUG SEND: 0x0 0x1f 0x0 0x0 0x0 0x6 0x1 0x3 0x90 0xff 0x0 0x2
2022-08-26T11:48:54 DEBUG New Transaction state 'SENDING'
2022-08-26T11:48:54 DEBUG Changing transaction state from 'SENDING' to 'WAITING FOR REPLY'
2022-08-26T11:48:54 DEBUG Changing transaction state from 'WAITING FOR REPLY' to 'PROCESSING REPLY'
2022-08-26T11:48:54 DEBUG RECV: 0x0 0x1f 0x0 0x0 0x0 0x7 0x1 0x3 0x4 0x0 0x9 0x10 0x4b
2022-08-26T11:48:54 DEBUG Processing: 0x0 0x1f 0x0 0x0 0x0 0x7 0x1 0x3 0x4 0x0 0x9 0x10 0x4b
2022-08-26T11:48:54 DEBUG Factory Response[ReadHoldingRegistersResponse: 3]
2022-08-26T11:48:54 DEBUG Adding transaction 31
2022-08-26T11:48:54 DEBUG Getting transaction 31
2022-08-26T11:48:54 DEBUG Changing transaction state from 'PROCESSING REPLY' to 'TRANSACTION_COMPLETE'
2022-08-26T11:48:54 DEBUG "Positive active electricity": 5939.95kWh
2022-08-26T11:48:54 DEBUG about to read param "Reverse active power"...
2022-08-26T11:48:54 DEBUG Current transaction state - TRANSACTION_COMPLETE
2022-08-26T11:48:54 DEBUG Running transaction 32
2022-08-26T11:48:54 DEBUG SEND: 0x0 0x20 0x0 0x0 0x0 0x6 0x1 0x3 0x91 0x1 0x0 0x2
2022-08-26T11:48:54 DEBUG New Transaction state 'SENDING'
2022-08-26T11:48:54 DEBUG Changing transaction state from 'SENDING' to 'WAITING FOR REPLY'
2022-08-26T11:48:55 DEBUG Changing transaction state from 'WAITING FOR REPLY' to 'PROCESSING REPLY'
2022-08-26T11:48:55 DEBUG RECV: 0x0 0x20 0x0 0x0 0x0 0x7 0x1 0x3 0x4 0x0 0x1 0x4d 0xcd
2022-08-26T11:48:55 DEBUG Processing: 0x0 0x20 0x0 0x0 0x0 0x7 0x1 0x3 0x4 0x0 0x1 0x4d 0xcd
2022-08-26T11:48:55 DEBUG Factory Response[ReadHoldingRegistersResponse: 3]
2022-08-26T11:48:55 DEBUG Adding transaction 32
2022-08-26T11:48:55 DEBUG Getting transaction 32
2022-08-26T11:48:55 DEBUG Changing transaction state from 'PROCESSING REPLY' to 'TRANSACTION_COMPLETE'
2022-08-26T11:48:55 DEBUG "Reverse active power": 854.53kWh
2022-08-26T11:48:55 DEBUG about to read param "[Energy storage] SOC"...
2022-08-26T11:48:55 DEBUG Current transaction state - TRANSACTION_COMPLETE
2022-08-26T11:48:55 DEBUG Running transaction 33
2022-08-26T11:48:55 DEBUG SEND: 0x0 0x21 0x0 0x0 0x0 0x6 0x1 0x3 0x93 0x80 0x0 0x1
2022-08-26T11:48:55 DEBUG New Transaction state 'SENDING'
2022-08-26T11:48:55 DEBUG Changing transaction state from 'SENDING' to 'WAITING FOR REPLY'
2022-08-26T11:48:55 DEBUG Changing transaction state from 'WAITING FOR REPLY' to 'PROCESSING REPLY'
2022-08-26T11:48:55 DEBUG RECV: 0x0 0x21 0x0 0x0 0x0 0x5 0x1 0x3 0x2 0x3 0xb6
2022-08-26T11:48:55 DEBUG Processing: 0x0 0x21 0x0 0x0 0x0 0x5 0x1 0x3 0x2 0x3 0xb6
2022-08-26T11:48:55 DEBUG Factory Response[ReadHoldingRegistersResponse: 3]
2022-08-26T11:48:55 DEBUG Adding transaction 33
2022-08-26T11:48:55 DEBUG Getting transaction 33
2022-08-26T11:48:55 DEBUG Changing transaction state from 'PROCESSING REPLY' to 'TRANSACTION_COMPLETE'
2022-08-26T11:48:55 DEBUG "[Energy storage] SOC": 95.0%
2022-08-26T11:48:55 DEBUG about to read param "[Energy storage] Charge/Discharge power"...
2022-08-26T11:48:55 DEBUG Current transaction state - TRANSACTION_COMPLETE
2022-08-26T11:48:55 DEBUG Running transaction 34
2022-08-26T11:48:55 DEBUG SEND: 0x0 0x22 0x0 0x0 0x0 0x6 0x1 0x3 0x93 0x85 0x0 0x2
2022-08-26T11:48:55 DEBUG New Transaction state 'SENDING'
2022-08-26T11:48:55 DEBUG Changing transaction state from 'SENDING' to 'WAITING FOR REPLY'
2022-08-26T11:48:56 DEBUG Changing transaction state from 'WAITING FOR REPLY' to 'PROCESSING REPLY'
2022-08-26T11:48:56 DEBUG RECV: 0x0 0x22 0x0 0x0 0x0 0x7 0x1 0x3 0x4 0x0 0x0 0x0 0x0
2022-08-26T11:48:56 DEBUG Processing: 0x0 0x22 0x0 0x0 0x0 0x7 0x1 0x3 0x4 0x0 0x0 0x0 0x0
2022-08-26T11:48:56 DEBUG Factory Response[ReadHoldingRegistersResponse: 3]
2022-08-26T11:48:56 DEBUG Adding transaction 34
2022-08-26T11:48:56 DEBUG Getting transaction 34
2022-08-26T11:48:56 DEBUG Changing transaction state from 'PROCESSING REPLY' to 'TRANSACTION_COMPLETE'
2022-08-26T11:48:56 DEBUG "[Energy storage] Charge/Discharge power": 0.0W
2022-08-26T11:48:56 DEBUG about to read param "[Energy storage] Current-day charge capacity"...
2022-08-26T11:48:56 DEBUG Current transaction state - TRANSACTION_COMPLETE
2022-08-26T11:48:56 DEBUG Running transaction 35
2022-08-26T11:48:56 DEBUG SEND: 0x0 0x23 0x0 0x0 0x0 0x6 0x1 0x3 0x93 0x98 0x0 0x2
2022-08-26T11:48:56 DEBUG New Transaction state 'SENDING'
2022-08-26T11:48:56 DEBUG Changing transaction state from 'SENDING' to 'WAITING FOR REPLY'
2022-08-26T11:48:57 DEBUG Changing transaction state from 'WAITING FOR REPLY' to 'PROCESSING REPLY'
2022-08-26T11:48:57 DEBUG RECV: 0x0 0x23 0x0 0x0 0x0 0x7 0x1 0x3 0x4 0x0 0x0 0x4 0xd9
2022-08-26T11:48:57 DEBUG Processing: 0x0 0x23 0x0 0x0 0x0 0x7 0x1 0x3 0x4 0x0 0x0 0x4 0xd9
2022-08-26T11:48:57 DEBUG Factory Response[ReadHoldingRegistersResponse: 3]
2022-08-26T11:48:57 DEBUG Adding transaction 35
2022-08-26T11:48:57 DEBUG Getting transaction 35
2022-08-26T11:48:57 DEBUG Changing transaction state from 'PROCESSING REPLY' to 'TRANSACTION_COMPLETE'
2022-08-26T11:48:57 DEBUG "[Energy storage] Current-day charge capacity": 12.41kWh
2022-08-26T11:48:57 DEBUG about to read param "[Energy storage] Current-day discharge capacity"...
2022-08-26T11:48:57 DEBUG Current transaction state - TRANSACTION_COMPLETE
2022-08-26T11:48:57 DEBUG Running transaction 36
2022-08-26T11:48:57 DEBUG SEND: 0x0 0x24 0x0 0x0 0x0 0x6 0x1 0x3 0x93 0x9a 0x0 0x2
2022-08-26T11:48:57 DEBUG New Transaction state 'SENDING'
2022-08-26T11:48:57 DEBUG Changing transaction state from 'SENDING' to 'WAITING FOR REPLY'
2022-08-26T11:48:58 DEBUG Changing transaction state from 'WAITING FOR REPLY' to 'PROCESSING REPLY'
2022-08-26T11:48:58 DEBUG RECV: 0x0 0x24 0x0 0x0 0x0 0x7 0x1 0x3 0x4 0x0 0x0 0x1 0x18
2022-08-26T11:48:58 DEBUG Processing: 0x0 0x24 0x0 0x0 0x0 0x7 0x1 0x3 0x4 0x0 0x0 0x1 0x18
2022-08-26T11:48:58 DEBUG Factory Response[ReadHoldingRegistersResponse: 3]
2022-08-26T11:48:58 DEBUG Adding transaction 36
2022-08-26T11:48:58 DEBUG Getting transaction 36
2022-08-26T11:48:58 DEBUG Changing transaction state from 'PROCESSING REPLY' to 'TRANSACTION_COMPLETE'
2022-08-26T11:48:58 DEBUG "[Energy storage] Current-day discharge capacity": 2.8kWh
2022-08-26T11:48:58 DEBUG about to read param "System time"...
2022-08-26T11:48:58 DEBUG Current transaction state - TRANSACTION_COMPLETE
2022-08-26T11:48:58 DEBUG Running transaction 37
2022-08-26T11:48:58 DEBUG SEND: 0x0 0x25 0x0 0x0 0x0 0x6 0x1 0x3 0x9c 0x40 0x0 0x2
2022-08-26T11:48:58 DEBUG New Transaction state 'SENDING'
2022-08-26T11:48:58 DEBUG Changing transaction state from 'SENDING' to 'WAITING FOR REPLY'
2022-08-26T11:48:59 DEBUG Changing transaction state from 'WAITING FOR REPLY' to 'PROCESSING REPLY'
2022-08-26T11:48:59 DEBUG RECV: 0x0 0x25 0x0 0x0 0x0 0x7 0x1 0x3 0x4 0x63 0x8 0xb3 0x26
2022-08-26T11:48:59 DEBUG Processing: 0x0 0x25 0x0 0x0 0x0 0x7 0x1 0x3 0x4 0x63 0x8 0xb3 0x26
2022-08-26T11:48:59 DEBUG Factory Response[ReadHoldingRegistersResponse: 3]
2022-08-26T11:48:59 DEBUG Adding transaction 37
2022-08-26T11:48:59 DEBUG Getting transaction 37
2022-08-26T11:48:59 DEBUG Changing transaction state from 'PROCESSING REPLY' to 'TRANSACTION_COMPLETE'
2022-08-26T11:48:59 DEBUG "System time": 1661514534.0
2022-08-26T11:48:59 DEBUG about to read param "[Backup] Switch to off-grid"...
2022-08-26T11:48:59 DEBUG Current transaction state - TRANSACTION_COMPLETE
2022-08-26T11:48:59 DEBUG Running transaction 38
2022-08-26T11:48:59 DEBUG SEND: 0x0 0x26 0x0 0x0 0x0 0x6 0x1 0x3 0xb9 0xf4 0x0 0x1
2022-08-26T11:48:59 DEBUG New Transaction state 'SENDING'
2022-08-26T11:48:59 DEBUG Changing transaction state from 'SENDING' to 'WAITING FOR REPLY'
2022-08-26T11:49:00 DEBUG Changing transaction state from 'WAITING FOR REPLY' to 'PROCESSING REPLY'
2022-08-26T11:49:00 DEBUG RECV: 0x0 0x26 0x0 0x0 0x0 0x5 0x1 0x3 0x2 0x0 0x0
2022-08-26T11:49:00 DEBUG Processing: 0x0 0x26 0x0 0x0 0x0 0x5 0x1 0x3 0x2 0x0 0x0
2022-08-26T11:49:00 DEBUG Factory Response[ReadHoldingRegistersResponse: 3]
2022-08-26T11:49:00 DEBUG Adding transaction 38
2022-08-26T11:49:00 DEBUG Getting transaction 38
2022-08-26T11:49:00 DEBUG Changing transaction state from 'PROCESSING REPLY' to 'TRANSACTION_COMPLETE'
2022-08-26T11:49:00 DEBUG "[Backup] Switch to off-grid": 0.0
2022-08-26T11:50:00 DEBUG about to read param "Total input power"...
2022-08-26T11:50:00 DEBUG Current transaction state - TRANSACTION_COMPLETE
2022-08-26T11:50:00 DEBUG Running transaction 39
2022-08-26T11:50:00 DEBUG SEND: 0x0 0x27 0x0 0x0 0x0 0x6 0x64 0x3 0x92 0x7a 0x0 0x2
2022-08-26T11:50:00 DEBUG New Transaction state 'SENDING'
2022-08-26T11:50:00 DEBUG Changing transaction state from 'SENDING' to 'WAITING FOR REPLY'
2022-08-26T11:50:00 DEBUG Changing transaction state from 'WAITING FOR REPLY' to 'PROCESSING REPLY'
2022-08-26T11:50:00 DEBUG RECV: 0x0 0x27 0x0 0x0 0x0 0x7 0x64 0x3 0x4 0x0 0x0 0x1b 0xf0
2022-08-26T11:50:00 DEBUG Processing: 0x0 0x27 0x0 0x0 0x0 0x7 0x64 0x3 0x4 0x0 0x0 0x1b 0xf0
2022-08-26T11:50:00 DEBUG Factory Response[ReadHoldingRegistersResponse: 3]
2022-08-26T11:50:00 DEBUG Adding transaction 39
2022-08-26T11:50:00 DEBUG Getting transaction 39
2022-08-26T11:50:00 DEBUG Changing transaction state from 'PROCESSING REPLY' to 'TRANSACTION_COMPLETE'
2022-08-26T11:50:00 DEBUG "Total input power": 7.152kW
2022-08-26T11:50:00 DEBUG about to read param "Load power"...
2022-08-26T11:50:00 DEBUG Current transaction state - TRANSACTION_COMPLETE
2022-08-26T11:50:00 DEBUG Running transaction 40
2022-08-26T11:50:00 DEBUG SEND: 0x0 0x28 0x0 0x0 0x0 0x6 0x64 0x3 0x92 0x7c 0x0 0x2
2022-08-26T11:50:00 DEBUG New Transaction state 'SENDING'
2022-08-26T11:50:00 DEBUG Changing transaction state from 'SENDING' to 'WAITING FOR REPLY'
2022-08-26T11:50:00 DEBUG Changing transaction state from 'WAITING FOR REPLY' to 'PROCESSING REPLY'
2022-08-26T11:50:00 DEBUG RECV: 0x0 0x28 0x0 0x0 0x0 0x7 0x64 0x3 0x4 0x0 0x0 0x0 0xb9
2022-08-26T11:50:00 DEBUG Processing: 0x0 0x28 0x0 0x0 0x0 0x7 0x64 0x3 0x4 0x0 0x0 0x0 0xb9
2022-08-26T11:50:00 DEBUG Factory Response[ReadHoldingRegistersResponse: 3]
2022-08-26T11:50:00 DEBUG Adding transaction 40
2022-08-26T11:50:00 DEBUG Getting transaction 40
2022-08-26T11:50:00 DEBUG Changing transaction state from 'PROCESSING REPLY' to 'TRANSACTION_COMPLETE'
2022-08-26T11:50:00 DEBUG "Load power": 0.185kW
2022-08-26T11:50:00 DEBUG about to read param "Grid power"...
2022-08-26T11:50:00 DEBUG Current transaction state - TRANSACTION_COMPLETE
2022-08-26T11:50:00 DEBUG Running transaction 41
2022-08-26T11:50:00 DEBUG SEND: 0x0 0x29 0x0 0x0 0x0 0x6 0x64 0x3 0x92 0x7e 0x0 0x2
2022-08-26T11:50:00 DEBUG New Transaction state 'SENDING'
2022-08-26T11:50:00 DEBUG Changing transaction state from 'SENDING' to 'WAITING FOR REPLY'
2022-08-26T11:50:00 DEBUG Changing transaction state from 'WAITING FOR REPLY' to 'PROCESSING REPLY'
2022-08-26T11:50:00 DEBUG RECV: 0x0 0x29 0x0 0x0 0x0 0x7 0x64 0x3 0x4 0xff 0xff 0xe4 0xc9
2022-08-26T11:50:00 DEBUG Processing: 0x0 0x29 0x0 0x0 0x0 0x7 0x64 0x3 0x4 0xff 0xff 0xe4 0xc9
2022-08-26T11:50:00 DEBUG Factory Response[ReadHoldingRegistersResponse: 3]
2022-08-26T11:50:00 DEBUG Adding transaction 41
2022-08-26T11:50:00 DEBUG Getting transaction 41
2022-08-26T11:50:00 DEBUG Changing transaction state from 'PROCESSING REPLY' to 'TRANSACTION_COMPLETE'
2022-08-26T11:50:00 DEBUG "Grid power": -6.967kW
2022-08-26T11:50:00 DEBUG about to read param "Total battery power"...
2022-08-26T11:50:00 DEBUG Current transaction state - TRANSACTION_COMPLETE
2022-08-26T11:50:00 DEBUG Running transaction 42
2022-08-26T11:50:00 DEBUG SEND: 0x0 0x2a 0x0 0x0 0x0 0x6 0x64 0x3 0x92 0x80 0x0 0x2
2022-08-26T11:50:00 DEBUG New Transaction state 'SENDING'
2022-08-26T11:50:00 DEBUG Changing transaction state from 'SENDING' to 'WAITING FOR REPLY'
2022-08-26T11:50:00 DEBUG Changing transaction state from 'WAITING FOR REPLY' to 'PROCESSING REPLY'
2022-08-26T11:50:00 DEBUG RECV: 0x0 0x2a 0x0 0x0 0x0 0x7 0x64 0x3 0x4 0x0 0x0 0x0 0x0
2022-08-26T11:50:00 DEBUG Processing: 0x0 0x2a 0x0 0x0 0x0 0x7 0x64 0x3 0x4 0x0 0x0 0x0 0x0
2022-08-26T11:50:00 DEBUG Factory Response[ReadHoldingRegistersResponse: 3]
2022-08-26T11:50:00 DEBUG Adding transaction 42
2022-08-26T11:50:00 DEBUG Getting transaction 42
2022-08-26T11:50:00 DEBUG Changing transaction state from 'PROCESSING REPLY' to 'TRANSACTION_COMPLETE'
2022-08-26T11:50:00 DEBUG "Total battery power": 0.0kW
2022-08-26T11:50:00 DEBUG about to read param "Total active power"...
2022-08-26T11:50:00 DEBUG Current transaction state - TRANSACTION_COMPLETE
2022-08-26T11:50:00 DEBUG Running transaction 43
2022-08-26T11:50:00 DEBUG SEND: 0x0 0x2b 0x0 0x0 0x0 0x6 0x64 0x3 0x92 0x80 0x0 0x2
2022-08-26T11:50:00 DEBUG New Transaction state 'SENDING'
2022-08-26T11:50:00 DEBUG Changing transaction state from 'SENDING' to 'WAITING FOR REPLY'
2022-08-26T11:50:00 DEBUG Changing transaction state from 'WAITING FOR REPLY' to 'PROCESSING REPLY'
2022-08-26T11:50:00 DEBUG RECV: 0x0 0x2b 0x0 0x0 0x0 0x7 0x64 0x3 0x4 0x0 0x0 0x0 0x0
2022-08-26T11:50:00 DEBUG Processing: 0x0 0x2b 0x0 0x0 0x0 0x7 0x64 0x3 0x4 0x0 0x0 0x0 0x0
2022-08-26T11:50:00 DEBUG Factory Response[ReadHoldingRegistersResponse: 3]
2022-08-26T11:50:00 DEBUG Adding transaction 43
2022-08-26T11:50:00 DEBUG Getting transaction 43
2022-08-26T11:50:00 DEBUG Changing transaction state from 'PROCESSING REPLY' to 'TRANSACTION_COMPLETE'
2022-08-26T11:50:00 DEBUG "Total active power": 0.0kW
2022-08-26T11:50:00 DEBUG about to read param "Input power"...
2022-08-26T11:50:00 DEBUG Current transaction state - TRANSACTION_COMPLETE
2022-08-26T11:50:00 DEBUG Running transaction 44
2022-08-26T11:50:00 DEBUG SEND: 0x0 0x2c 0x0 0x0 0x0 0x6 0x1 0x3 0x7d 0x40 0x0 0x2
2022-08-26T11:50:00 DEBUG New Transaction state 'SENDING'
2022-08-26T11:50:00 DEBUG Changing transaction state from 'SENDING' to 'WAITING FOR REPLY'
2022-08-26T11:50:00 DEBUG Changing transaction state from 'WAITING FOR REPLY' to 'PROCESSING REPLY'
2022-08-26T11:50:00 DEBUG RECV: 0x0 0x2c 0x0 0x0 0x0 0x7 0x1 0x3 0x4 0x0 0x0 0x13 0x79
2022-08-26T11:50:00 DEBUG Processing: 0x0 0x2c 0x0 0x0 0x0 0x7 0x1 0x3 0x4 0x0 0x0 0x13 0x79
2022-08-26T11:50:00 DEBUG Factory Response[ReadHoldingRegistersResponse: 3]
2022-08-26T11:50:00 DEBUG Adding transaction 44
2022-08-26T11:50:00 DEBUG Getting transaction 44
2022-08-26T11:50:00 DEBUG Changing transaction state from 'PROCESSING REPLY' to 'TRANSACTION_COMPLETE'
2022-08-26T11:50:00 DEBUG "Input power": 4.985kW
2022-08-26T11:50:00 DEBUG about to read param "Peak active power of current day"...
2022-08-26T11:50:00 DEBUG Current transaction state - TRANSACTION_COMPLETE
2022-08-26T11:50:00 DEBUG Running transaction 45
2022-08-26T11:50:00 DEBUG SEND: 0x0 0x2d 0x0 0x0 0x0 0x6 0x1 0x3 0x7d 0x4e 0x0 0x2
2022-08-26T11:50:00 DEBUG New Transaction state 'SENDING'
2022-08-26T11:50:00 DEBUG Changing transaction state from 'SENDING' to 'WAITING FOR REPLY'
2022-08-26T11:50:01 DEBUG Changing transaction state from 'WAITING FOR REPLY' to 'PROCESSING REPLY'
2022-08-26T11:50:01 DEBUG RECV: 0x0 0x2d 0x0 0x0 0x0 0x7 0x1 0x3 0x4 0x0 0x0 0x15 0x65
2022-08-26T11:50:01 DEBUG Processing: 0x0 0x2d 0x0 0x0 0x0 0x7 0x1 0x3 0x4 0x0 0x0 0x15 0x65
2022-08-26T11:50:01 DEBUG Factory Response[ReadHoldingRegistersResponse: 3]
2022-08-26T11:50:01 DEBUG Adding transaction 45
2022-08-26T11:50:01 DEBUG Getting transaction 45
2022-08-26T11:50:01 DEBUG Changing transaction state from 'PROCESSING REPLY' to 'TRANSACTION_COMPLETE'
2022-08-26T11:50:01 DEBUG "Peak active power of current day": 5.477kW
2022-08-26T11:50:01 DEBUG about to read param "Active power"...
2022-08-26T11:50:01 DEBUG Current transaction state - TRANSACTION_COMPLETE
2022-08-26T11:50:01 DEBUG Running transaction 46
2022-08-26T11:50:01 DEBUG SEND: 0x0 0x2e 0x0 0x0 0x0 0x6 0x1 0x3 0x7d 0x50 0x0 0x2
2022-08-26T11:50:01 DEBUG New Transaction state 'SENDING'
2022-08-26T11:50:01 DEBUG Changing transaction state from 'SENDING' to 'WAITING FOR REPLY'
2022-08-26T11:50:02 DEBUG Changing transaction state from 'WAITING FOR REPLY' to 'PROCESSING REPLY'
2022-08-26T11:50:02 DEBUG RECV: 0x0 0x2e 0x0 0x0 0x0 0x7 0x1 0x3 0x4 0x0 0x0 0x13 0xca
2022-08-26T11:50:02 DEBUG Processing: 0x0 0x2e 0x0 0x0 0x0 0x7 0x1 0x3 0x4 0x0 0x0 0x13 0xca
2022-08-26T11:50:02 DEBUG Factory Response[ReadHoldingRegistersResponse: 3]
2022-08-26T11:50:02 DEBUG Adding transaction 46
2022-08-26T11:50:02 DEBUG Getting transaction 46
2022-08-26T11:50:02 DEBUG Changing transaction state from 'PROCESSING REPLY' to 'TRANSACTION_COMPLETE'
2022-08-26T11:50:02 DEBUG "Active power": 5.066kW
2022-08-26T11:50:02 DEBUG about to read param "Accumulated energy yield"...
2022-08-26T11:50:02 DEBUG Current transaction state - TRANSACTION_COMPLETE
2022-08-26T11:50:02 DEBUG Running transaction 47
2022-08-26T11:50:02 DEBUG SEND: 0x0 0x2f 0x0 0x0 0x0 0x6 0x1 0x3 0x7d 0x6a 0x0 0x2
2022-08-26T11:50:02 DEBUG New Transaction state 'SENDING'
2022-08-26T11:50:02 DEBUG Changing transaction state from 'SENDING' to 'WAITING FOR REPLY'
2022-08-26T11:50:05 DEBUG Transaction failed. (Modbus Error: [Invalid Message] No response received, expected at least 8 bytes (0 received))
2022-08-26T11:50:05 DEBUG Processing:
2022-08-26T11:50:05 DEBUG Getting transaction 47
2022-08-26T11:50:05 DEBUG Changing transaction state from 'PROCESSING REPLY' to 'TRANSACTION_COMPLETE'
2022-08-26T11:50:05 ERROR Error: Modbus Error: [Input/Output] Modbus Error: [Invalid Message] No response received, expected at least 8 bytes (0 received)
